                                kicad schematic
                                Transient Analysis  Wed Oct 22 17:17:05  2025
--------------------------------------------------------------------------------
Index   time            v1#branch       v2#branch       
--------------------------------------------------------------------------------
0	0.000000e+00	-2.47672e-11	0.000000e+00	
1	1.000000e-12	-2.47672e-11	8.673617e-19	
2	2.000000e-12	-2.47672e-11	2.168404e-19	
3	4.000000e-12	-2.47672e-11	8.673617e-19	
4	8.000000e-12	-2.47672e-11	-5.96311e-19	
5	1.600000e-11	-2.47672e-11	9.486769e-19	
6	3.200000e-11	-2.47672e-11	-9.48677e-19	
7	6.400000e-11	-2.47672e-11	1.036768e-18	
8	1.000000e-10	-2.47672e-11	-1.14519e-18	
9	1.064000e-10	1.756835e-05	-2.88093e-05	
10	1.192000e-10	1.786510e-05	-3.78285e-05	
11	1.448000e-10	-3.23720e-05	-5.66733e-05	
12	1.960000e-10	3.024605e-06	-4.36462e-05	
13	2.000000e-10	6.215996e-06	-3.64198e-05	
14	2.067616e-10	-4.21287e-07	-1.81555e-06	
15	2.202848e-10	2.480824e-07	1.079578e-06	
16	2.440435e-10	-1.84397e-07	-8.08602e-07	
17	2.915611e-10	1.590860e-07	7.009781e-07	
18	3.865962e-10	-1.47796e-07	-6.52853e-07	
19	5.766663e-10	1.424396e-07	6.301971e-07	
20	9.568067e-10	-1.39847e-07	-6.19096e-07	
21	1.717087e-09	1.385577e-07	6.136599e-07	
22	3.237649e-09	-1.37928e-07	-6.10942e-07	
23	6.278772e-09	1.376039e-07	6.095970e-07	
24	1.236102e-08	-1.37452e-07	-6.08921e-07	
25	2.452551e-08	1.373665e-07	6.085856e-07	
26	4.885449e-08	-1.37333e-07	-6.08417e-07	
27	9.751245e-08	1.373072e-07	6.083331e-07	
28	1.948284e-07	-1.37304e-07	-6.08291e-07	
29	3.894602e-07	1.372924e-07	6.082699e-07	
30	7.787240e-07	-1.37296e-07	-6.08259e-07	
31	1.557251e-06	1.372887e-07	6.082542e-07	
32	3.114306e-06	-1.37294e-07	-6.08252e-07	
33	6.228416e-06	1.372877e-07	6.082502e-07	
34	1.245664e-05	-1.37294e-07	-6.08250e-07	
35	2.491307e-05	1.372875e-07	6.082492e-07	
36	4.982595e-05	-1.37294e-07	-6.08249e-07	
37	9.965171e-05	1.372874e-07	6.082490e-07	
38	1.993032e-04	-1.37294e-07	-6.08249e-07	
39	2.993032e-04	1.372874e-07	6.082489e-07	
40	3.993032e-04	-1.37294e-07	-6.08249e-07	
41	4.993032e-04	1.372874e-07	6.082488e-07	
42	5.993032e-04	-1.37294e-07	-6.08249e-07	
43	6.993032e-04	1.372874e-07	6.082487e-07	
44	7.993032e-04	-1.37294e-07	-6.08249e-07	
45	8.993032e-04	1.372874e-07	6.082487e-07	
46	9.993032e-04	-1.37294e-07	-6.08249e-07	
47	1.099303e-03	1.372873e-07	6.082486e-07	
48	1.199303e-03	-1.37294e-07	-6.08249e-07	
49	1.299303e-03	1.372873e-07	6.082485e-07	
50	1.399303e-03	-1.37294e-07	-6.08248e-07	
51	1.499303e-03	1.372873e-07	6.082484e-07	
52	1.599303e-03	-1.37294e-07	-6.08248e-07	
53	1.699303e-03	1.372873e-07	6.082483e-07	
54	1.799303e-03	-1.37294e-07	-6.08248e-07	

Index   time            v1#branch       v2#branch       
--------------------------------------------------------------------------------
55	1.899303e-03	1.372873e-07	6.082482e-07	
56	1.999303e-03	-1.37293e-07	-6.08248e-07	
57	2.099303e-03	1.372872e-07	6.082482e-07	
58	2.199303e-03	-1.37293e-07	-6.08248e-07	
59	2.299303e-03	1.372872e-07	6.082481e-07	
60	2.399303e-03	-1.37293e-07	-6.08248e-07	
61	2.499303e-03	1.372872e-07	6.082480e-07	
62	2.599303e-03	-1.37293e-07	-6.08248e-07	
63	2.699303e-03	1.372872e-07	6.082479e-07	
64	2.799303e-03	-1.37293e-07	-6.08248e-07	
65	2.899303e-03	1.372872e-07	6.082478e-07	
66	2.999303e-03	-1.37293e-07	-6.08248e-07	
67	3.099303e-03	1.372871e-07	6.082478e-07	
68	3.199303e-03	-1.37293e-07	-6.08248e-07	
69	3.299303e-03	1.372871e-07	6.082477e-07	
70	3.399303e-03	-1.37293e-07	-6.08248e-07	
71	3.499303e-03	1.372871e-07	6.082476e-07	
72	3.599303e-03	-1.37293e-07	-6.08248e-07	
73	3.699303e-03	1.372871e-07	6.082475e-07	
74	3.799303e-03	-1.37293e-07	-6.08247e-07	
75	3.899303e-03	1.372871e-07	6.082474e-07	
76	3.999303e-03	-1.37293e-07	-6.08247e-07	
77	4.099303e-03	1.372871e-07	6.082473e-07	
78	4.199303e-03	-1.37293e-07	-6.08247e-07	
79	4.299303e-03	1.372870e-07	6.082473e-07	
80	4.399303e-03	-1.37293e-07	-6.08247e-07	
81	4.499303e-03	1.372870e-07	6.082472e-07	
82	4.599303e-03	-1.37293e-07	-6.08247e-07	
83	4.699303e-03	1.372870e-07	6.082471e-07	
84	4.799303e-03	-1.37293e-07	-6.08247e-07	
85	4.899303e-03	1.372870e-07	6.082470e-07	
86	4.999303e-03	-1.37293e-07	-6.08247e-07	
87	5.099303e-03	1.372870e-07	6.082469e-07	
88	5.199303e-03	-1.37293e-07	-6.08247e-07	
89	5.299303e-03	1.372869e-07	6.082469e-07	
90	5.399303e-03	-1.37293e-07	-6.08247e-07	
91	5.499303e-03	1.372869e-07	6.082468e-07	
92	5.599303e-03	-1.37293e-07	-6.08247e-07	
93	5.699303e-03	1.372869e-07	6.082467e-07	
94	5.799303e-03	-1.37293e-07	-6.08247e-07	
95	5.899303e-03	1.372869e-07	6.082466e-07	
96	5.999303e-03	-1.37293e-07	-6.08247e-07	
97	6.099303e-03	1.372869e-07	6.082465e-07	
98	6.199303e-03	-1.37293e-07	-6.08246e-07	
99	6.299303e-03	1.372868e-07	6.082464e-07	
100	6.399303e-03	-1.37293e-07	-6.08246e-07	
101	6.499303e-03	1.372868e-07	6.082464e-07	
102	6.599303e-03	-1.37293e-07	-6.08246e-07	
103	6.699303e-03	1.372868e-07	6.082463e-07	
104	6.799303e-03	-1.37293e-07	-6.08246e-07	
105	6.899303e-03	1.372868e-07	6.082462e-07	
106	6.999303e-03	-1.37293e-07	-6.08246e-07	
107	7.099303e-03	1.372868e-07	6.082461e-07	
108	7.199303e-03	-1.37293e-07	-6.08246e-07	
109	7.299303e-03	1.372867e-07	6.082460e-07	
110	7.399303e-03	-1.37293e-07	-6.08246e-07	
111	7.499303e-03	1.372867e-07	6.082460e-07	
112	7.599303e-03	-1.37293e-07	-6.08246e-07	

Index   time            v1#branch       v2#branch       
--------------------------------------------------------------------------------
113	7.699303e-03	1.372867e-07	6.082459e-07	
114	7.799303e-03	-1.37293e-07	-6.08246e-07	
115	7.899303e-03	1.372867e-07	6.082458e-07	
116	7.999303e-03	-1.37293e-07	-6.08246e-07	
117	8.099303e-03	1.372867e-07	6.082457e-07	
118	8.199303e-03	-1.37293e-07	-6.08246e-07	
119	8.299303e-03	1.372866e-07	6.082456e-07	
120	8.399303e-03	-1.37293e-07	-6.08246e-07	
121	8.499303e-03	1.372866e-07	6.082455e-07	
122	8.599303e-03	-1.37293e-07	-6.08246e-07	
123	8.699303e-03	1.372866e-07	6.082455e-07	
124	8.799303e-03	-1.37293e-07	-6.08245e-07	
125	8.899303e-03	1.372866e-07	6.082454e-07	
126	8.999303e-03	-1.37293e-07	-6.08245e-07	
127	9.099303e-03	1.372866e-07	6.082453e-07	
128	9.199303e-03	-1.37293e-07	-6.08245e-07	
129	9.299303e-03	1.372866e-07	6.082452e-07	
130	9.399303e-03	-1.37293e-07	-6.08245e-07	
131	9.499303e-03	1.372865e-07	6.082451e-07	
132	9.599303e-03	-1.37293e-07	-6.08245e-07	
133	9.699303e-03	1.372865e-07	6.082451e-07	
134	9.799303e-03	-1.37293e-07	-6.08245e-07	
135	9.899303e-03	1.372865e-07	6.082450e-07	
136	9.999303e-03	-1.37293e-07	-6.08245e-07	
137	1.000000e-02	1.372851e-07	6.082391e-07	
138	1.000000e-02	-6.41440e-06	3.276739e-05	
139	1.000000e-02	-2.04200e-05	4.496308e-05	
140	1.000000e-02	-6.99319e-05	5.150607e-05	
141	1.000000e-02	-3.89041e-05	4.393884e-05	
142	1.000000e-02	-1.00114e-05	7.901159e-06	
143	1.000000e-02	2.797528e-06	-2.14680e-06	
144	1.000000e-02	-1.56613e-06	1.160350e-06	
145	1.000000e-02	1.178037e-06	-8.50075e-07	
146	1.000000e-02	-1.01940e-06	7.225207e-07	
147	1.000000e-02	9.502021e-07	-6.67371e-07	
148	1.000000e-02	-9.16695e-07	6.404334e-07	
149	1.000000e-02	9.006347e-07	-6.27656e-07	
150	1.000000e-02	-8.92630e-07	6.211918e-07	
151	1.000001e-02	8.886540e-07	-6.18058e-07	
152	1.000002e-02	-8.86710e-07	6.164580e-07	
153	1.000003e-02	8.856838e-07	-6.15678e-07	
154	1.000007e-02	-8.85236e-07	6.152793e-07	
155	1.000013e-02	8.849428e-07	-6.15085e-07	
156	1.000026e-02	-8.84868e-07	6.149849e-07	
157	1.000052e-02	8.847576e-07	-6.14936e-07	
158	1.000105e-02	-8.84776e-07	6.149113e-07	
159	1.000210e-02	8.847114e-07	-6.14899e-07	
160	1.000419e-02	-8.84753e-07	6.148929e-07	
161	1.000839e-02	8.846998e-07	-6.14890e-07	
162	1.001678e-02	-8.84747e-07	6.148883e-07	
163	1.003355e-02	8.846969e-07	-6.14888e-07	
164	1.006711e-02	-8.84746e-07	6.148872e-07	
165	1.013422e-02	8.846962e-07	-6.14887e-07	
166	1.023422e-02	-8.84746e-07	6.148869e-07	
167	1.033422e-02	8.846959e-07	-6.14887e-07	
168	1.043422e-02	-8.84745e-07	6.148866e-07	
169	1.053422e-02	8.846955e-07	-6.14886e-07	
170	1.063422e-02	-8.84745e-07	6.148863e-07	

Index   time            v1#branch       v2#branch       
--------------------------------------------------------------------------------
171	1.073422e-02	8.846952e-07	-6.14886e-07	
172	1.083422e-02	-8.84745e-07	6.148861e-07	
173	1.093422e-02	8.846949e-07	-6.14886e-07	
174	1.103422e-02	-8.84744e-07	6.148858e-07	
175	1.113422e-02	8.846946e-07	-6.14886e-07	
176	1.123422e-02	-8.84744e-07	6.148856e-07	
177	1.133422e-02	8.846942e-07	-6.14885e-07	
178	1.143422e-02	-8.84744e-07	6.148853e-07	
179	1.153422e-02	8.846939e-07	-6.14885e-07	
180	1.163422e-02	-8.84743e-07	6.148850e-07	
181	1.173422e-02	8.846936e-07	-6.14885e-07	
182	1.183422e-02	-8.84743e-07	6.148848e-07	
183	1.193422e-02	8.846933e-07	-6.14885e-07	
184	1.203422e-02	-8.84743e-07	6.148845e-07	
185	1.213422e-02	8.846930e-07	-6.14884e-07	
186	1.223422e-02	-8.84742e-07	6.148843e-07	
187	1.233422e-02	8.846926e-07	-6.14884e-07	
188	1.243422e-02	-8.84742e-07	6.148840e-07	
189	1.253422e-02	8.846923e-07	-6.14884e-07	
190	1.263422e-02	-8.84742e-07	6.148838e-07	
191	1.273422e-02	8.846920e-07	-6.14884e-07	
192	1.283422e-02	-8.84741e-07	6.148835e-07	
193	1.293422e-02	8.846917e-07	-6.14883e-07	
194	1.303422e-02	-8.84741e-07	6.148832e-07	
195	1.313422e-02	8.846913e-07	-6.14883e-07	
196	1.323422e-02	-8.84741e-07	6.148830e-07	
197	1.333422e-02	8.846910e-07	-6.14883e-07	
198	1.343422e-02	-8.84740e-07	6.148827e-07	
199	1.353422e-02	8.846907e-07	-6.14883e-07	
200	1.363422e-02	-8.84740e-07	6.148825e-07	
201	1.373422e-02	8.846904e-07	-6.14882e-07	
202	1.383422e-02	-8.84740e-07	6.148822e-07	
203	1.393422e-02	8.846901e-07	-6.14882e-07	
204	1.403422e-02	-8.84739e-07	6.148820e-07	
205	1.413422e-02	8.846897e-07	-6.14882e-07	
206	1.423422e-02	-8.84739e-07	6.148817e-07	
207	1.433422e-02	8.846894e-07	-6.14882e-07	
208	1.443422e-02	-8.84739e-07	6.148814e-07	
209	1.453422e-02	8.846891e-07	-6.14881e-07	
210	1.463422e-02	-8.84738e-07	6.148812e-07	
211	1.473422e-02	8.846888e-07	-6.14881e-07	
212	1.483422e-02	-8.84738e-07	6.148809e-07	
213	1.493422e-02	8.846884e-07	-6.14881e-07	
214	1.503422e-02	-8.84738e-07	6.148807e-07	
215	1.513422e-02	8.846881e-07	-6.14881e-07	
216	1.523422e-02	-8.84737e-07	6.148804e-07	
217	1.533422e-02	8.846878e-07	-6.14880e-07	
218	1.543422e-02	-8.84737e-07	6.148801e-07	
219	1.553422e-02	8.846875e-07	-6.14880e-07	
220	1.563422e-02	-8.84737e-07	6.148799e-07	
221	1.573422e-02	8.846871e-07	-6.14880e-07	
222	1.583422e-02	-8.84737e-07	6.148796e-07	
223	1.593422e-02	8.846868e-07	-6.14879e-07	
224	1.603422e-02	-8.84736e-07	6.148794e-07	
225	1.613422e-02	8.846865e-07	-6.14879e-07	
226	1.623422e-02	-8.84736e-07	6.148791e-07	
227	1.633422e-02	8.846862e-07	-6.14879e-07	
228	1.643422e-02	-8.84736e-07	6.148789e-07	

Index   time            v1#branch       v2#branch       
--------------------------------------------------------------------------------
229	1.653422e-02	8.846859e-07	-6.14879e-07	
230	1.663422e-02	-8.84735e-07	6.148786e-07	
231	1.673422e-02	8.846855e-07	-6.14878e-07	
232	1.683422e-02	-8.84735e-07	6.148783e-07	
233	1.693422e-02	8.846852e-07	-6.14878e-07	
234	1.703422e-02	-8.84735e-07	6.148781e-07	
235	1.713422e-02	8.846849e-07	-6.14878e-07	
236	1.723422e-02	-8.84734e-07	6.148778e-07	
237	1.733422e-02	8.846846e-07	-6.14878e-07	
238	1.743422e-02	-8.84734e-07	6.148776e-07	
239	1.753422e-02	8.846842e-07	-6.14877e-07	
240	1.763422e-02	-8.84734e-07	6.148773e-07	
241	1.773422e-02	8.846839e-07	-6.14877e-07	
242	1.783422e-02	-8.84733e-07	6.148770e-07	
243	1.793422e-02	8.846836e-07	-6.14877e-07	
244	1.803422e-02	-8.84733e-07	6.148768e-07	
245	1.813422e-02	8.846833e-07	-6.14877e-07	
246	1.823422e-02	-8.84733e-07	6.148765e-07	
247	1.833422e-02	8.846830e-07	-6.14876e-07	
248	1.843422e-02	-8.84732e-07	6.148763e-07	
249	1.853422e-02	8.846826e-07	-6.14876e-07	
250	1.863422e-02	-8.84732e-07	6.148760e-07	
251	1.873422e-02	8.846823e-07	-6.14876e-07	
252	1.883422e-02	-8.84732e-07	6.148758e-07	
253	1.893422e-02	8.846820e-07	-6.14876e-07	
254	1.903422e-02	-8.84731e-07	6.148755e-07	
255	1.913422e-02	8.846817e-07	-6.14875e-07	
256	1.923422e-02	-8.84731e-07	6.148752e-07	
257	1.933422e-02	8.846813e-07	-6.14875e-07	
258	1.943422e-02	-8.84731e-07	6.148750e-07	
259	1.953422e-02	8.846810e-07	-6.14875e-07	
260	1.963422e-02	-8.84730e-07	6.148747e-07	
261	1.973422e-02	8.846807e-07	-6.14875e-07	
262	1.983422e-02	-8.84730e-07	6.148745e-07	
263	1.993422e-02	8.846804e-07	-6.14874e-07	
264	2.000000e-02	-8.84730e-07	6.148741e-07	
265	2.001000e-02	4.542783e-11	-4.56089e-10	
266	2.003000e-02	-5.16661e-11	4.560890e-10	
267	2.005838e-02	4.542786e-11	-4.56089e-10	
268	2.008456e-02	-5.16662e-11	4.560889e-10	
269	2.013691e-02	4.542788e-11	-4.56089e-10	
270	2.023691e-02	-5.16662e-11	4.560889e-10	
271	2.033691e-02	4.542788e-11	-4.56089e-10	
272	2.043691e-02	-5.16662e-11	4.560889e-10	
273	2.053691e-02	4.542789e-11	-4.56089e-10	
274	2.063691e-02	-5.16662e-11	4.560888e-10	
275	2.073691e-02	4.542790e-11	-4.56089e-10	
276	2.083691e-02	-5.16662e-11	4.560888e-10	
277	2.093691e-02	4.542790e-11	-4.56089e-10	
278	2.103691e-02	-5.16662e-11	4.560887e-10	
279	2.113691e-02	4.542791e-11	-4.56089e-10	
280	2.123691e-02	-5.16662e-11	4.560887e-10	
281	2.133691e-02	4.542792e-11	-4.56089e-10	
282	2.143691e-02	-5.16662e-11	4.560887e-10	
283	2.153691e-02	4.542793e-11	-4.56089e-10	
284	2.163691e-02	-5.16662e-11	4.560887e-10	
285	2.173691e-02	4.542793e-11	-4.56089e-10	
286	2.183691e-02	-5.16662e-11	4.560886e-10	

Index   time            v1#branch       v2#branch       
--------------------------------------------------------------------------------
287	2.193691e-02	4.542794e-11	-4.56089e-10	
288	2.203691e-02	-5.16662e-11	4.560886e-10	
289	2.213691e-02	4.542795e-11	-4.56089e-10	
290	2.223691e-02	-5.16662e-11	4.560886e-10	
291	2.233691e-02	4.542795e-11	-4.56088e-10	
292	2.243691e-02	-5.16662e-11	4.560885e-10	
293	2.253691e-02	4.542796e-11	-4.56088e-10	
294	2.263691e-02	-5.16662e-11	4.560885e-10	
295	2.273691e-02	4.542797e-11	-4.56088e-10	
296	2.283691e-02	-5.16663e-11	4.560885e-10	
297	2.293691e-02	4.542797e-11	-4.56088e-10	
298	2.303691e-02	-5.16663e-11	4.560884e-10	
299	2.313691e-02	4.542798e-11	-4.56088e-10	
300	2.323691e-02	-5.16663e-11	4.560884e-10	
301	2.333691e-02	4.542799e-11	-4.56088e-10	
302	2.343691e-02	-5.16663e-11	4.560884e-10	
303	2.353691e-02	4.542800e-11	-4.56088e-10	
304	2.363691e-02	-5.16663e-11	4.560884e-10	
305	2.373691e-02	4.542800e-11	-4.56088e-10	
306	2.383691e-02	-5.16663e-11	4.560883e-10	
307	2.393691e-02	4.542801e-11	-4.56088e-10	
308	2.403691e-02	-5.16663e-11	4.560883e-10	
309	2.413691e-02	4.542802e-11	-4.56088e-10	
310	2.423691e-02	-5.16663e-11	4.560883e-10	
311	2.433691e-02	4.542802e-11	-4.56088e-10	
312	2.443691e-02	-5.16663e-11	4.560882e-10	
313	2.453691e-02	4.542803e-11	-4.56088e-10	
314	2.463691e-02	-5.16663e-11	4.560882e-10	
315	2.473691e-02	4.542804e-11	-4.56088e-10	
316	2.483691e-02	-5.16663e-11	4.560882e-10	
317	2.493691e-02	4.542804e-11	-4.56088e-10	
318	2.503691e-02	-5.16663e-11	4.560881e-10	
319	2.513691e-02	4.542805e-11	-4.56088e-10	
320	2.523691e-02	-5.16663e-11	4.560881e-10	
321	2.533691e-02	4.542806e-11	-4.56088e-10	
322	2.543691e-02	-5.16663e-11	4.560881e-10	
323	2.553691e-02	4.542807e-11	-4.56088e-10	
324	2.563691e-02	-5.16664e-11	4.560881e-10	
325	2.573691e-02	4.542807e-11	-4.56088e-10	
326	2.583691e-02	-5.16664e-11	4.560880e-10	
327	2.593691e-02	4.542808e-11	-4.56088e-10	
328	2.603691e-02	-5.16664e-11	4.560880e-10	
329	2.613691e-02	4.542809e-11	-4.56088e-10	
330	2.623691e-02	-5.16664e-11	4.560880e-10	
331	2.633691e-02	4.542809e-11	-4.56088e-10	
332	2.643691e-02	-5.16664e-11	4.560879e-10	
333	2.653691e-02	4.542810e-11	-4.56088e-10	
334	2.663691e-02	-5.16664e-11	4.560879e-10	
335	2.673691e-02	4.542811e-11	-4.56088e-10	
336	2.683691e-02	-5.16664e-11	4.560879e-10	
337	2.693691e-02	4.542811e-11	-4.56088e-10	
338	2.703691e-02	-5.16664e-11	4.560878e-10	
339	2.713691e-02	4.542812e-11	-4.56088e-10	
340	2.723691e-02	-5.16664e-11	4.560878e-10	
341	2.733691e-02	4.542813e-11	-4.56088e-10	
342	2.743691e-02	-5.16664e-11	4.560878e-10	
343	2.753691e-02	4.542814e-11	-4.56088e-10	
344	2.763691e-02	-5.16664e-11	4.560878e-10	

Index   time            v1#branch       v2#branch       
--------------------------------------------------------------------------------
345	2.773691e-02	4.542814e-11	-4.56088e-10	
346	2.783691e-02	-5.16664e-11	4.560877e-10	
347	2.793691e-02	4.542815e-11	-4.56088e-10	
348	2.803691e-02	-5.16664e-11	4.560877e-10	
349	2.813691e-02	4.542816e-11	-4.56088e-10	
350	2.823691e-02	-5.16664e-11	4.560877e-10	
351	2.833691e-02	4.542816e-11	-4.56088e-10	
352	2.843691e-02	-5.16664e-11	4.560876e-10	
353	2.853691e-02	4.542817e-11	-4.56088e-10	
354	2.863691e-02	-5.16665e-11	4.560876e-10	
355	2.873691e-02	4.542818e-11	-4.56088e-10	
356	2.883691e-02	-5.16665e-11	4.560876e-10	
357	2.893691e-02	4.542818e-11	-4.56088e-10	
358	2.903691e-02	-5.16665e-11	4.560876e-10	
359	2.913691e-02	4.542819e-11	-4.56087e-10	
360	2.923691e-02	-5.16665e-11	4.560875e-10	
361	2.933691e-02	4.542820e-11	-4.56087e-10	
362	2.943691e-02	-5.16665e-11	4.560875e-10	
363	2.953691e-02	4.542820e-11	-4.56087e-10	
364	2.963691e-02	-5.16665e-11	4.560874e-10	
365	2.973691e-02	4.542821e-11	-4.56087e-10	
366	2.983691e-02	-5.16665e-11	4.560874e-10	
367	2.993691e-02	4.542822e-11	-4.56087e-10	
368	3.000000e-02	-5.16665e-11	4.560874e-10	
369	3.000000e-02	-6.43469e-06	3.268109e-05	
370	3.000000e-02	-2.04069e-05	4.502087e-05	
371	3.000000e-02	-6.99173e-05	5.147699e-05	
372	3.000000e-02	-3.88910e-05	4.394392e-05	
373	3.000000e-02	-1.00022e-05	7.894033e-06	
374	3.000000e-02	2.794969e-06	-2.14494e-06	
375	3.000000e-02	-1.56468e-06	1.159379e-06	
376	3.000000e-02	1.176939e-06	-8.49383e-07	
377	3.000000e-02	-1.01845e-06	7.219462e-07	
378	3.000000e-02	9.493115e-07	-6.66845e-07	
379	3.000000e-02	-9.15835e-07	6.399323e-07	
380	3.000000e-02	8.997889e-07	-6.27166e-07	
381	3.000000e-02	-8.91792e-07	6.207080e-07	
382	3.000001e-02	8.878190e-07	-6.17577e-07	
383	3.000002e-02	-8.85877e-07	6.159784e-07	
384	3.000003e-02	8.848515e-07	-6.15199e-07	
385	3.000007e-02	-8.84404e-07	6.148008e-07	
386	3.000013e-02	8.841112e-07	-6.14606e-07	
387	3.000026e-02	-8.84037e-07	6.145067e-07	
388	3.000052e-02	8.839262e-07	-6.14458e-07	
389	3.000105e-02	-8.83945e-07	6.144332e-07	
390	3.000210e-02	8.838800e-07	-6.14421e-07	
391	3.000419e-02	-8.83922e-07	6.144148e-07	
392	3.000839e-02	8.838684e-07	-6.14412e-07	
393	3.001678e-02	-8.83916e-07	6.144102e-07	
394	3.003355e-02	8.838655e-07	-6.14409e-07	
395	3.006711e-02	-8.83915e-07	6.144090e-07	
396	3.013422e-02	8.838648e-07	-6.14409e-07	
397	3.023422e-02	-8.83914e-07	6.144087e-07	
398	3.033422e-02	8.838645e-07	-6.14409e-07	
399	3.043422e-02	-8.83914e-07	6.144085e-07	
400	3.053422e-02	8.838642e-07	-6.14408e-07	
401	3.063422e-02	-8.83914e-07	6.144082e-07	
402	3.073422e-02	8.838638e-07	-6.14408e-07	

Index   time            v1#branch       v2#branch       
--------------------------------------------------------------------------------
403	3.083422e-02	-8.83913e-07	6.144079e-07	
404	3.093422e-02	8.838635e-07	-6.14408e-07	
405	3.103422e-02	-8.83913e-07	6.144077e-07	
406	3.113422e-02	8.838632e-07	-6.14408e-07	
407	3.123422e-02	-8.83913e-07	6.144074e-07	
408	3.133422e-02	8.838629e-07	-6.14407e-07	
409	3.143422e-02	-8.83912e-07	6.144072e-07	
410	3.153422e-02	8.838625e-07	-6.14407e-07	
411	3.163422e-02	-8.83912e-07	6.144069e-07	
412	3.173422e-02	8.838622e-07	-6.14407e-07	
413	3.183422e-02	-8.83912e-07	6.144067e-07	
414	3.193422e-02	8.838619e-07	-6.14407e-07	
415	3.203422e-02	-8.83911e-07	6.144064e-07	
416	3.213422e-02	8.838616e-07	-6.14406e-07	
417	3.223422e-02	-8.83911e-07	6.144061e-07	
418	3.233422e-02	8.838613e-07	-6.14406e-07	
419	3.243422e-02	-8.83911e-07	6.144059e-07	
420	3.253422e-02	8.838609e-07	-6.14406e-07	
421	3.263422e-02	-8.83910e-07	6.144056e-07	
422	3.273422e-02	8.838606e-07	-6.14405e-07	
423	3.283422e-02	-8.83910e-07	6.144054e-07	
424	3.293422e-02	8.838603e-07	-6.14405e-07	
425	3.303422e-02	-8.83910e-07	6.144051e-07	
